[[2025-Apr-03 16:08:37] [debug] --------------------------------------------------------------------------------
[2025-Apr-03 16:08:37] [debug] nrfjprog -f nrf52 --recover --log 
[2025-Apr-03 16:08:37] [debug] nrfjprog version 10.24.2 external
[2025-Apr-03 16:08:37] [debug] --------------------------------------------------------------------------------
[2025-Apr-03 16:08:37] [ info] Load library at /Applications/Nordic Semiconductor/lib/libnrfjprogdll.dylib.
[2025-Apr-03 16:08:37] [ info] Library loaded, loading member functions.
[2025-Apr-03 16:08:37] [ info] Member functions succesfully loaded.
[2025-Apr-03 16:08:37] [debug] [ Client] - open
[2025-Apr-03 16:08:37] [debug] [ Client] - start
[2025-Apr-03 16:08:37] [ info] [ Client] - stdout: Jlinkarm nRF Worker ready. Handling sequence f32d5b8e-2741-45ed-839d-a0288a1d236b.
[2025-Apr-03 16:08:37] [trace] [ Client] - Command open executed for 29 milliseconds with result 0
[2025-Apr-03 16:08:37] [debug] [ Client] - config
[2025-Apr-03 16:08:37] [debug] [SeggerBackend] - Logger sink registered in Segger backend logger
[2025-Apr-03 16:08:37] [debug] [  JLink] - Logger sink registered in JLink logger
[2025-Apr-03 16:08:37] [debug] [  nRF52] - open
[2025-Apr-03 16:08:37] [debug] [  nRF52] - just_check_family
[2025-Apr-03 16:08:37] [debug] [SeggerBackend] - open_dll
[2025-Apr-03 16:08:37] [debug] [SeggerBackend] - No J-Link DLL path was provided. Attempting to auto detect.
[2025-Apr-03 16:08:37] [ info] [SeggerBackend] - Load library at /Applications/SEGGER/JLink/libjlinkarm.8.dylib.
[2025-Apr-03 16:08:37] [ info] [SeggerBackend] - Library loaded, loading member functions.
[2025-Apr-03 16:08:37] [ info] [SeggerBackend] - Member functions succesfully loaded.
[2025-Apr-03 16:08:37] [debug] [SeggerBackend] - Set batch mode
[2025-Apr-03 16:08:37] [debug] [SeggerBackend] - dll_version
[2025-Apr-03 16:08:37] [ info] [SeggerBackend] - Segger dll version 8.24.  loaded.
[2025-Apr-03 16:08:37] [trace] [ Worker] - Command open executed for 11 milliseconds with result 0
[2025-Apr-03 16:08:37] [trace] [ Client] - Command config executed for 12 milliseconds with result 0
[2025-Apr-03 16:08:37] [debug] [ Client] - enum_emu_snr
[2025-Apr-03 16:08:37] [debug] [  nRF52] - config
[2025-Apr-03 16:08:37] [debug] [SeggerBackend] - enum_emu_snr
[2025-Apr-03 16:08:37] [trace] [ Worker] - Command config executed for 3 milliseconds with result 0
[2025-Apr-03 16:08:37] [debug] [  nRF52] - enum_emu_con_info
[2025-Apr-03 16:08:37] [debug] [SeggerBackend] - is_connected_to_emu
[2025-Apr-03 16:08:37] [debug] [SeggerBackend] - enum_emu_con_info
[2025-Apr-03 16:08:37] [trace] [ Client] - Command enum_emu_con_info executed for 18 milliseconds with result 0
[2025-Apr-03 16:08:37] [debug] [ Client] - connect_to_emu_with_snr
[2025-Apr-03 16:08:37] [debug] [SeggerBackend] - is_connected_to_emu
[2025-Apr-03 16:08:37] [trace] [ Worker] - Command enum_emu_con_info executed for 16 milliseconds with result 0
[2025-Apr-03 16:08:37] [debug] [  nRF52] - connect_to_emu_with_snr
[2025-Apr-03 16:08:37] [debug] [SeggerBackend] - is_connected_to_emu
[2025-Apr-03 16:08:37] [debug] [SeggerBackend] - connect_to_emu_with_snr
[2025-Apr-03 16:08:37] [debug] [SeggerBackend] - is_connected_to_emu
[2025-Apr-03 16:08:37] [debug] [SeggerBackend] - ---just_enum_emu_snr
[2025-Apr-03 16:08:37] [debug] [SeggerBackend] - ---just_get_num_emus
[2025-Apr-03 16:08:37] [debug] [SeggerBackend] - ---just_connect_to_emu_with_snr
[2025-Apr-03 16:08:37] [debug] [SeggerBackend] - ---just_connect_to_emu_without_snr
[2025-Apr-03 16:08:37] [debug] [SeggerBackend] - Segger logging enabled.
[2025-Apr-03 16:08:37] [trace] [  JLink] - Firmware: J-Link OB-nRF5340-NordicSemi compiled Feb 11 2025 17:15:35
[2025-Apr-03 16:08:37] [trace] [  JLink] - Firmware: J-Link OB-nRF5340-NordicSemi compiled Feb 11 2025 17:15:35
[2025-Apr-03 16:08:37] [trace] [ Client] - Command connect_to_emu_with_snr executed for 68 milliseconds with result 0
[2025-Apr-03 16:08:37] [debug] [ Client] - read_connected_emu_snr
[2025-Apr-03 16:08:37] [trace] [  JLink] - Hardware: V1.00
[2025-Apr-03 16:08:37] [trace] [  JLink] - S/N: 1050341207
[2025-Apr-03 16:08:37] [trace] [  JLink] - OEM: SEGGER
[2025-Apr-03 16:08:37] [trace] [  JLink] - Feature(s): RDI, FlashBP, FlashDL, JFlash, GDB
[2025-Apr-03 16:08:37] [trace] [  JLink] - Bootloader: 2021 May 18
[2025-Apr-03 16:08:37] [trace] [  JLink] - USB speed mode: Full speed (12 MBit/s)
[2025-Apr-03 16:08:37] [trace] [  JLink] - TELNET listener socket opened on port 19021
[2025-Apr-03 16:08:37] [trace] [  JLink] - WEBSRV WEBSRV_Init(): Starting webserver thread(s)
[2025-Apr-03 16:08:37] [trace] [  JLink] - WEBSRV Failed to put socket into listener state (port 19080)
[2025-Apr-03 16:08:37] [trace] [ Client] - Command read_connected_emu_snr executed for 6 milliseconds with result 0
[2025-Apr-03 16:08:37] [trace] [  JLink] - WEBSRV Webserver running on local port 19081
[2025-Apr-03 16:08:37] [trace] [  JLink] - Looking for J-Link GUI Server exe at: /Applications/SEGGER/JLink_V824/JLinkGUIServerExe 
[2025-Apr-03 16:08:37] [trace] [  JLink] - Forking J-Link GUI Server: /Applications/SEGGER/JLink_V824/JLinkGUIServerExe 
[2025-Apr-03 16:08:37] [trace] [  JLink] - J-Link GUI Server info: "J-Link GUI server V8.24 " 
[2025-Apr-03 16:08:37] [trace] [  JLink] - - 26.958ms returns "O.K."  
[2025-Apr-03 16:08:37] [trace] [  JLink] - JLINK_HasError()  
[2025-Apr-03 16:08:37] [trace] [  JLink] - JLINK_Lock()  
[2025-Apr-03 16:08:37] [trace] [  JLink] - JLINK_ExecCommand("SetRestartOnClose = 0", ...).   
[2025-Apr-03 16:08:37] [trace] [  JLink] - - 0.121ms returns 0x01  
[2025-Apr-03 16:08:37] [trace] [  JLink] - JLINK_HasError()  
[2025-Apr-03 16:08:37] [trace] [  JLink] - JLINK_ExecCommand("DisableFlashDL", ...).   
[2025-Apr-03 16:08:37] [trace] [  JLink] - - 0.001ms returns 0x00  
[2025-Apr-03 16:08:37] [trace] [  JLink] - JLINK_HasError()  
[2025-Apr-03 16:08:37] [trace] [  JLink] - JLINK_ExecCommand("ExcludeFlashCacheRange 0x0-0xFFFFFFFF", ...).   
[2025-Apr-03 16:08:37] [trace] [  JLink] - - 0.001ms returns 0x00  
[2025-Apr-03 16:08:37] [trace] [  JLink] - JLINK_HasError()  
[2025-Apr-03 16:08:37] [trace] [  JLink] - JLINK_SetHookUnsecureDialog  
[2025-Apr-03 16:08:37] [trace] [  JLink] - JLINK_SetHookUnsecureDialog(...)
[2025-Apr-03 16:08:37] [trace] [  JLink] - - 0.004ms returns 0  
[2025-Apr-03 16:08:37] [trace] [  JLink] - JLINK_HasError()  
[2025-Apr-03 16:08:37] [trace] [  JLink] - JLINK_TIF_Select(JLINKARM_TIF_SWD)  
[2025-Apr-03 16:08:37] [trace] [  JLink] - - 0.900ms returns 0x00  
[2025-Apr-03 16:08:37] [trace] [  JLink] - JLINK_HasError()  
[2025-Apr-03 16:08:37] [trace] [  JLink] - JLINK_GetSpeedInfo()  
[2025-Apr-03 16:08:37] [trace] [  JLink] - 128000000 Hz / n, n >= 64
[2025-Apr-03 16:08:37] [trace] [  JLink] - - 0.002ms   
[2025-Apr-03 16:08:37] [trace] [  JLink] - JLINK_HasError()  
[2025-Apr-03 16:08:37] [debug] [SeggerBackend] - Connected emulator supports SWD speeds up to 2000kHz
[2025-Apr-03 16:08:37] [trace] [  JLink] - JLINK_SetSpeed(2000)  
[2025-Apr-03 16:08:37] [trace] [  JLink] - - 0.334ms   
[2025-Apr-03 16:08:37] [trace] [  JLink] - JLINK_HasError()  
[2025-Apr-03 16:08:37] [trace] [  JLink] - JLINK_GetSpeed()  
[2025-Apr-03 16:08:37] [trace] [  JLink] - - 0.154ms returns 2000  
[2025-Apr-03 16:08:37] [trace] [  JLink] - JLINK_HasError()  
[2025-Apr-03 16:08:37] [debug] [SeggerBackend] - SWD clock set to 2000kHz
[2025-Apr-03 16:08:37] [trace] [  JLink] - JLINK_GetSN()  
[2025-Apr-03 16:08:37] [trace] [  JLink] - - 0.000ms returns 1050341207  
[2025-Apr-03 16:08:37] [trace] [  JLink] - JLINK_HasError()  
[2025-Apr-03 16:08:37] [trace] [  JLink] - - 0.001ms   
[2025-Apr-03 16:08:37] [debug] [  nRF52] - read_device_family
[2025-Apr-03 16:08:37] [trace] [ Worker] - Command connect_to_emu_with_snr executed for 61 milliseconds with result 0
[2025-Apr-03 16:08:37] [debug] [  nRF52] - read_connected_emu_snr
[2025-Apr-03 16:08:37] [debug] [SeggerBackend] - is_connected_to_emu
[2025-Apr-03 16:08:37] [trace] [  JLink] - JLINK_IsOpen()  
[2025-Apr-03 16:08:37] [trace] [  JLink] - - 0.001ms returns 0x01  
[2025-Apr-03 16:08:37] [trace] [  JLink] - JLINK_HasError()  
[2025-Apr-03 16:08:37] [debug] [ Client] - recover
[2025-Apr-03 16:08:37] [trace] [  JLink] - JLINK_Lock()  
[2025-Apr-03 16:08:37] [debug] [SeggerBackend] - read_connected_emu_snr
[2025-Apr-03 16:08:37] [trace] [  JLink] - - 0.001ms   
[2025-Apr-03 16:08:37] [trace] [ Worker] - Command read_connected_emu_snr executed for 0 milliseconds with result 0
[2025-Apr-03 16:08:37] [debug] [  nRF52] - recover
[2025-Apr-03 16:08:37] [debug] [SeggerBackend] - is_connected_to_emu
[2025-Apr-03 16:08:37] [trace] [  JLink] - JLINK_IsOpen()  
[2025-Apr-03 16:08:37] [trace] [  JLink] - - 0.002ms returns 0x01  
[2025-Apr-03 16:08:37] [trace] [  JLink] - JLINK_HasError()  
[2025-Apr-03 16:08:37] [trace] [  JLink] - JLINK_Lock()  
[2025-Apr-03 16:08:37] [debug] [SeggerBackend] - is_connected_to_emu
[2025-Apr-03 16:08:37] [debug] [  nRF52] - Just_recover
[2025-Apr-03 16:08:37] [debug] [  nRF52] - Just_is_ctrl_ap_available
[2025-Apr-03 16:08:37] [debug] [SeggerBackend] - read_access_port_register
[2025-Apr-03 16:08:37] [debug] [SeggerBackend] - ---just_read_access_port_register
[2025-Apr-03 16:08:37] [debug] [SeggerBackend] - coresight_configure
[2025-Apr-03 16:08:37] [trace] [  JLink] - JLINK_GetHWStatus(...)  
[2025-Apr-03 16:08:37] [trace] [  JLink] - - 0.290ms returns 0  
[2025-Apr-03 16:08:37] [trace] [  JLink] - JLINK_HasError()  
[2025-Apr-03 16:08:37] [trace] [  JLink] - JLINK_CORESIGHT_Configure()  
[2025-Apr-03 16:08:37] [trace] [  JLink] - - 0.430ms returns 0  
[2025-Apr-03 16:08:37] [trace] [  JLink] - JLINK_HasError()  
[2025-Apr-03 16:08:37] [debug] [SeggerBackend] - read_debug_port_idr
[2025-Apr-03 16:08:37] [debug] [SeggerBackend] - read_debug_port_register
[2025-Apr-03 16:08:37] [debug] [SeggerBackend] - ---just_read_debug_port_register
[2025-Apr-03 16:08:37] [debug] [SeggerBackend] - ---just_select_debug_port_register
[2025-Apr-03 16:08:37] [debug] [SeggerBackend] - Select AP 255, DP Bank 0, AP Bank 255
[2025-Apr-03 16:08:37] [trace] [  JLink] - JLINK_CORESIGHT_WriteAPDPReg(DP reg 0x02, 0x00000000)  
[2025-Apr-03 16:08:37] [trace] [  JLink] - - 0.238ms returns 0  
[2025-Apr-03 16:08:37] [trace] [  JLink] - JLINK_HasError()  
[2025-Apr-03 16:08:37] [trace] [  JLink] - JLINK_CORESIGHT_ReadAPDPReg(DP reg 0x00)  
[2025-Apr-03 16:08:37] [trace] [  JLink] - Value=0x2BA01477
[2025-Apr-03 16:08:37] [trace] [  JLink] - - 0.229ms returns 0  
[2025-Apr-03 16:08:37] [trace] [  JLink] - JLINK_HasError()  
[2025-Apr-03 16:08:37] [debug] [SeggerBackend] - ---just_is_debug_region_powered
[2025-Apr-03 16:08:37] [debug] [SeggerBackend] - ---just_read_debug_port_register
[2025-Apr-03 16:08:37] [debug] [SeggerBackend] - ---just_select_debug_port_register
[2025-Apr-03 16:08:37] [trace] [  JLink] - JLINK_CORESIGHT_ReadAPDPReg(DP reg 0x01)  
[2025-Apr-03 16:08:37] [trace] [  JLink] - Value=0xF0000000
[2025-Apr-03 16:08:37] [trace] [  JLink] - - 0.253ms returns 0  
[2025-Apr-03 16:08:37] [trace] [  JLink] - JLINK_HasError()  
[2025-Apr-03 16:08:37] [debug] [SeggerBackend] - ---just_select_access_port_register
[2025-Apr-03 16:08:37] [debug] [SeggerBackend] - Select AP 1, DP Bank 0, AP Bank 15
[2025-Apr-03 16:08:37] [trace] [  JLink] - JLINK_CORESIGHT_WriteAPDPReg(DP reg 0x02, 0x010000F0)  
[2025-Apr-03 16:08:37] [trace] [  JLink] - - 0.274ms returns 0  
[2025-Apr-03 16:08:37] [trace] [  JLink] - JLINK_HasError()  
[2025-Apr-03 16:08:37] [trace] [  JLink] - JLINK_CORESIGHT_ReadAPDPReg(AP reg 0x03)  
[2025-Apr-03 16:08:37] [trace] [  JLink] - Value=0x02880000
[2025-Apr-03 16:08:37] [trace] [  JLink] - - 0.306ms returns 0  
[2025-Apr-03 16:08:37] [trace] [  JLink] - JLINK_HasError()  
[2025-Apr-03 16:08:37] [debug] [SeggerBackend] - read_access_port_register
[2025-Apr-03 16:08:37] [debug] [SeggerBackend] - ---just_read_access_port_register
[2025-Apr-03 16:08:37] [debug] [SeggerBackend] - ---just_select_access_port_register
[2025-Apr-03 16:08:37] [trace] [  JLink] - JLINK_CORESIGHT_ReadAPDPReg(AP reg 0x03)  
[2025-Apr-03 16:08:37] [trace] [  JLink] - Value=0x02880000
[2025-Apr-03 16:08:37] [trace] [  JLink] - - 0.283ms returns 0  
[2025-Apr-03 16:08:37] [trace] [  JLink] - JLINK_HasError()  
[2025-Apr-03 16:08:37] [debug] [SeggerBackend] - read_access_port_register
[2025-Apr-03 16:08:37] [debug] [SeggerBackend] - ---just_read_access_port_register
[2025-Apr-03 16:08:37] [debug] [SeggerBackend] - ---just_select_access_port_register
[2025-Apr-03 16:08:37] [trace] [  JLink] - JLINK_CORESIGHT_ReadAPDPReg(AP reg 0x03)  
[2025-Apr-03 16:08:37] [trace] [  JLink] - Value=0x02880000
[2025-Apr-03 16:08:37] [trace] [  JLink] - - 0.263ms returns 0  
[2025-Apr-03 16:08:37] [trace] [  JLink] - JLINK_HasError()  
[2025-Apr-03 16:08:37] [debug] [SeggerBackend] - read_access_port_register
[2025-Apr-03 16:08:37] [debug] [SeggerBackend] - ---just_read_access_port_register
[2025-Apr-03 16:08:37] [debug] [SeggerBackend] - ---just_select_access_port_register
[2025-Apr-03 16:08:37] [trace] [  JLink] - JLINK_CORESIGHT_ReadAPDPReg(AP reg 0x03)  
[2025-Apr-03 16:08:37] [trace] [  JLink] - Value=0x02880000
[2025-Apr-03 16:08:37] [trace] [  JLink] - - 0.311ms returns 0  
[2025-Apr-03 16:08:37] [trace] [  JLink] - JLINK_HasError()  
[2025-Apr-03 16:08:37] [debug] [SeggerBackend] - write_access_port_register
[2025-Apr-03 16:08:37] [debug] [SeggerBackend] - ---just_write_access_port_register
[2025-Apr-03 16:08:37] [debug] [SeggerBackend] - ---just_select_access_port_register
[2025-Apr-03 16:08:37] [debug] [SeggerBackend] - Select AP 1, DP Bank 0, AP Bank 0
[2025-Apr-03 16:08:37] [trace] [  JLink] - JLINK_CORESIGHT_WriteAPDPReg(DP reg 0x02, 0x01000000)  
[2025-Apr-03 16:08:37] [trace] [  JLink] - - 0.226ms returns 0  
[2025-Apr-03 16:08:37] [trace] [  JLink] - JLINK_HasError()  
[2025-Apr-03 16:08:37] [trace] [  JLink] - JLINK_CORESIGHT_WriteAPDPReg(AP reg 0x01, 0x00000001)  
[2025-Apr-03 16:08:37] [trace] [  JLink] - - 0.250ms returns 0  
[2025-Apr-03 16:08:37] [trace] [  JLink] - JLINK_HasError()  
[2025-Apr-03 16:08:37] [debug] [SeggerBackend] - read_access_port_register
[2025-Apr-03 16:08:37] [debug] [SeggerBackend] - ---just_read_access_port_register
[2025-Apr-03 16:08:37] [debug] [SeggerBackend] - ---just_select_access_port_register
[2025-Apr-03 16:08:37] [trace] [  JLink] - JLINK_CORESIGHT_ReadAPDPReg(AP reg 0x02)  
[2025-Apr-03 16:08:37] [trace] [  JLink] - Value=0x00000001
[2025-Apr-03 16:08:37] [trace] [  JLink] - - 0.973ms returns 0  
[2025-Apr-03 16:08:37] [trace] [  JLink] - JLINK_HasError()  
[2025-Apr-03 16:08:38] [debug] [SeggerBackend] - read_access_port_register
[2025-Apr-03 16:08:38] [debug] [SeggerBackend] - ---just_read_access_port_register
[2025-Apr-03 16:08:38] [debug] [SeggerBackend] - ---just_select_access_port_register
[2025-Apr-03 16:08:38] [trace] [  JLink] - JLINK_CORESIGHT_ReadAPDPReg(AP reg 0x02)  
[2025-Apr-03 16:08:38] [trace] [  JLink] - Value=0x00000001
[2025-Apr-03 16:08:38] [trace] [  JLink] - - 0.781ms returns 0  
[2025-Apr-03 16:08:38] [trace] [  JLink] - JLINK_HasError()  
[2025-Apr-03 16:08:38] [debug] [SeggerBackend] - read_access_port_register
[2025-Apr-03 16:08:38] [debug] [SeggerBackend] - ---just_read_access_port_register
[2025-Apr-03 16:08:38] [debug] [SeggerBackend] - ---just_select_access_port_register
[2025-Apr-03 16:08:38] [trace] [  JLink] - JLINK_CORESIGHT_ReadAPDPReg(AP reg 0x02)  
[2025-Apr-03 16:08:38] [trace] [  JLink] - Value=0x00000001
[2025-Apr-03 16:08:38] [trace] [  JLink] - - 0.961ms returns 0  
[2025-Apr-03 16:08:38] [trace] [  JLink] - JLINK_HasError()  
[2025-Apr-03 16:08:39] [debug] [SeggerBackend] - read_access_port_register
[2025-Apr-03 16:08:39] [debug] [SeggerBackend] - ---just_read_access_port_register
[2025-Apr-03 16:08:39] [debug] [SeggerBackend] - ---just_select_access_port_register
[2025-Apr-03 16:08:39] [trace] [  JLink] - JLINK_CORESIGHT_ReadAPDPReg(AP reg 0x02)  
[2025-Apr-03 16:08:39] [trace] [  JLink] - Value=0x00000001
[2025-Apr-03 16:08:39] [trace] [  JLink] - - 0.923ms returns 0  
[2025-Apr-03 16:08:39] [trace] [  JLink] - JLINK_HasError()  
[2025-Apr-03 16:08:39] [debug] [SeggerBackend] - read_access_port_register
[2025-Apr-03 16:08:39] [debug] [SeggerBackend] - ---just_read_access_port_register
[2025-Apr-03 16:08:39] [debug] [SeggerBackend] - ---just_select_access_port_register
[2025-Apr-03 16:08:39] [trace] [  JLink] - JLINK_CORESIGHT_ReadAPDPReg(AP reg 0x02)  
[2025-Apr-03 16:08:39] [trace] [  JLink] - Value=0x00000001
[2025-Apr-03 16:08:39] [trace] [  JLink] - - 0.717ms returns 0  
[2025-Apr-03 16:08:39] [trace] [  JLink] - JLINK_HasError()  
[2025-Apr-03 16:08:40] [debug] [SeggerBackend] - read_access_port_register
[2025-Apr-03 16:08:40] [debug] [SeggerBackend] - ---just_read_access_port_register
[2025-Apr-03 16:08:40] [debug] [SeggerBackend] - ---just_select_access_port_register
[2025-Apr-03 16:08:40] [trace] [  JLink] - JLINK_CORESIGHT_ReadAPDPReg(AP reg 0x02)  
[2025-Apr-03 16:08:40] [trace] [  JLink] - Value=0x00000001
[2025-Apr-03 16:08:40] [trace] [  JLink] - - 0.920ms returns 0  
[2025-Apr-03 16:08:40] [trace] [  JLink] - JLINK_HasError()  
[2025-Apr-03 16:08:40] [debug] [SeggerBackend] - read_access_port_register
[2025-Apr-03 16:08:40] [debug] [SeggerBackend] - ---just_read_access_port_register
[2025-Apr-03 16:08:40] [debug] [SeggerBackend] - ---just_select_access_port_register
[2025-Apr-03 16:08:40] [trace] [  JLink] - JLINK_CORESIGHT_ReadAPDPReg(AP reg 0x02)  
[2025-Apr-03 16:08:40] [trace] [  JLink] - Value=0x00000001
[2025-Apr-03 16:08:40] [trace] [  JLink] - - 0.909ms returns 0  
[2025-Apr-03 16:08:40] [trace] [  JLink] - JLINK_HasError()  
[2025-Apr-03 16:08:41] [debug] [SeggerBackend] - read_access_port_register
[2025-Apr-03 16:08:41] [debug] [SeggerBackend] - ---just_read_access_port_register
[2025-Apr-03 16:08:41] [debug] [SeggerBackend] - ---just_select_access_port_register
[2025-Apr-03 16:08:41] [trace] [  JLink] - JLINK_CORESIGHT_ReadAPDPReg(AP reg 0x02)  
[2025-Apr-03 16:08:41] [trace] [  JLink] - Value=0x00000001
[2025-Apr-03 16:08:41] [trace] [  JLink] - - 0.654ms returns 0  
[2025-Apr-03 16:08:41] [trace] [  JLink] - JLINK_HasError()  
[2025-Apr-03 16:08:41] [debug] [SeggerBackend] - read_access_port_register
[2025-Apr-03 16:08:41] [debug] [SeggerBackend] - ---just_read_access_port_register
[2025-Apr-03 16:08:41] [debug] [SeggerBackend] - ---just_select_access_port_register
[2025-Apr-03 16:08:41] [trace] [  JLink] - JLINK_CORESIGHT_ReadAPDPReg(AP reg 0x02)  
[2025-Apr-03 16:08:41] [trace] [  JLink] - Value=0x00000001
[2025-Apr-03 16:08:41] [trace] [  JLink] - - 1.013ms returns 0  
[2025-Apr-03 16:08:41] [trace] [  JLink] - JLINK_HasError()  
[2025-Apr-03 16:08:42] [debug] [SeggerBackend] - read_access_port_register
[2025-Apr-03 16:08:42] [debug] [SeggerBackend] - ---just_read_access_port_register
[2025-Apr-03 16:08:42] [debug] [SeggerBackend] - ---just_select_access_port_register
[2025-Apr-03 16:08:42] [trace] [  JLink] - JLINK_CORESIGHT_ReadAPDPReg(AP reg 0x02)  
[2025-Apr-03 16:08:42] [trace] [  JLink] - Value=0x00000001
[2025-Apr-03 16:08:42] [trace] [  JLink] - - 1.009ms returns 0  
[2025-Apr-03 16:08:42] [trace] [  JLink] - JLINK_HasError()  
[2025-Apr-03 16:08:42] [debug] [SeggerBackend] - read_access_port_register
[2025-Apr-03 16:08:42] [debug] [SeggerBackend] - ---just_read_access_port_register
[2025-Apr-03 16:08:42] [debug] [SeggerBackend] - ---just_select_access_port_register
[2025-Apr-03 16:08:42] [trace] [  JLink] - JLINK_CORESIGHT_ReadAPDPReg(AP reg 0x02)  
[2025-Apr-03 16:08:42] [trace] [  JLink] - Value=0x00000001
[2025-Apr-03 16:08:42] [trace] [  JLink] - - 1.016ms returns 0  
[2025-Apr-03 16:08:42] [trace] [  JLink] - JLINK_HasError()  
[2025-Apr-03 16:08:43] [debug] [SeggerBackend] - read_access_port_register
[2025-Apr-03 16:08:43] [debug] [SeggerBackend] - ---just_read_access_port_register
[2025-Apr-03 16:08:43] [debug] [SeggerBackend] - ---just_select_access_port_register
[2025-Apr-03 16:08:43] [trace] [  JLink] - JLINK_CORESIGHT_ReadAPDPReg(AP reg 0x02)  
[2025-Apr-03 16:08:43] [trace] [  JLink] - Value=0x00000001
[2025-Apr-03 16:08:43] [trace] [  JLink] - - 0.953ms returns 0  
[2025-Apr-03 16:08:43] [trace] [  JLink] - JLINK_HasError()  
[2025-Apr-03 16:08:43] [debug] [SeggerBackend] - read_access_port_register
[2025-Apr-03 16:08:43] [debug] [SeggerBackend] - ---just_read_access_port_register
[2025-Apr-03 16:08:43] [debug] [SeggerBackend] - ---just_select_access_port_register
[2025-Apr-03 16:08:43] [trace] [  JLink] - JLINK_CORESIGHT_ReadAPDPReg(AP reg 0x02)  
[2025-Apr-03 16:08:43] [trace] [  JLink] - Value=0x00000001
[2025-Apr-03 16:08:43] [trace] [  JLink] - - 1.012ms returns 0  
[2025-Apr-03 16:08:43] [trace] [  JLink] - JLINK_HasError()  
[2025-Apr-03 16:08:44] [debug] [SeggerBackend] - read_access_port_register
[2025-Apr-03 16:08:44] [debug] [SeggerBackend] - ---just_read_access_port_register
[2025-Apr-03 16:08:44] [debug] [SeggerBackend] - ---just_select_access_port_register
[2025-Apr-03 16:08:44] [trace] [  JLink] - JLINK_CORESIGHT_ReadAPDPReg(AP reg 0x02)  
[2025-Apr-03 16:08:44] [trace] [  JLink] - Value=0x00000001
[2025-Apr-03 16:08:44] [trace] [  JLink] - - 0.630ms returns 0  
[2025-Apr-03 16:08:44] [trace] [  JLink] - JLINK_HasError()  
[2025-Apr-03 16:08:44] [debug] [SeggerBackend] - read_access_port_register
[2025-Apr-03 16:08:44] [debug] [SeggerBackend] - ---just_read_access_port_register
[2025-Apr-03 16:08:44] [debug] [SeggerBackend] - ---just_select_access_port_register
[2025-Apr-03 16:08:44] [trace] [  JLink] - JLINK_CORESIGHT_ReadAPDPReg(AP reg 0x02)  
[2025-Apr-03 16:08:44] [trace] [  JLink] - Value=0x00000001
[2025-Apr-03 16:08:44] [trace] [  JLink] - - 0.987ms returns 0  
[2025-Apr-03 16:08:44] [trace] [  JLink] - JLINK_HasError()  
[2025-Apr-03 16:08:45] [debug] [SeggerBackend] - read_access_port_register
[2025-Apr-03 16:08:45] [debug] [SeggerBackend] - ---just_read_access_port_register
[2025-Apr-03 16:08:45] [debug] [SeggerBackend] - ---just_select_access_port_register
[2025-Apr-03 16:08:45] [trace] [  JLink] - JLINK_CORESIGHT_ReadAPDPReg(AP reg 0x02)  
[2025-Apr-03 16:08:45] [trace] [  JLink] - Value=0x00000001
[2025-Apr-03 16:08:45] [trace] [  JLink] - - 0.631ms returns 0  
[2025-Apr-03 16:08:45] [trace] [  JLink] - JLINK_HasError()  
[2025-Apr-03 16:08:45] [debug] [SeggerBackend] - read_access_port_register
[2025-Apr-03 16:08:45] [debug] [SeggerBackend] - ---just_read_access_port_register
[2025-Apr-03 16:08:45] [debug] [SeggerBackend] - ---just_select_access_port_register
[2025-Apr-03 16:08:45] [trace] [  JLink] - JLINK_CORESIGHT_ReadAPDPReg(AP reg 0x02)  
[2025-Apr-03 16:08:45] [trace] [  JLink] - Value=0x00000001
[2025-Apr-03 16:08:45] [trace] [  JLink] - - 0.662ms returns 0  
[2025-Apr-03 16:08:45] [trace] [  JLink] - JLINK_HasError()  
[2025-Apr-03 16:08:46] [debug] [SeggerBackend] - read_access_port_register
[2025-Apr-03 16:08:46] [debug] [SeggerBackend] - ---just_read_access_port_register
[2025-Apr-03 16:08:46] [debug] [SeggerBackend] - ---just_select_access_port_register
[2025-Apr-03 16:08:46] [trace] [  JLink] - JLINK_CORESIGHT_ReadAPDPReg(AP reg 0x02)  
[2025-Apr-03 16:08:46] [trace] [  JLink] - Value=0x00000001
[2025-Apr-03 16:08:46] [trace] [  JLink] - - 0.837ms returns 0  
[2025-Apr-03 16:08:46] [trace] [  JLink] - JLINK_HasError()  
[2025-Apr-03 16:08:46] [debug] [SeggerBackend] - read_access_port_register
[2025-Apr-03 16:08:46] [debug] [SeggerBackend] - ---just_read_access_port_register
[2025-Apr-03 16:08:46] [debug] [SeggerBackend] - ---just_select_access_port_register
[2025-Apr-03 16:08:46] [trace] [  JLink] - JLINK_CORESIGHT_ReadAPDPReg(AP reg 0x02)  
[2025-Apr-03 16:08:46] [trace] [  JLink] - Value=0x00000001
[2025-Apr-03 16:08:46] [trace] [  JLink] - - 0.822ms returns 0  
[2025-Apr-03 16:08:46] [trace] [  JLink] - JLINK_HasError()  
[2025-Apr-03 16:08:47] [debug] [SeggerBackend] - read_access_port_register
[2025-Apr-03 16:08:47] [debug] [SeggerBackend] - ---just_read_access_port_register
[2025-Apr-03 16:08:47] [debug] [SeggerBackend] - ---just_select_access_port_register
[2025-Apr-03 16:08:47] [trace] [  JLink] - JLINK_CORESIGHT_ReadAPDPReg(AP reg 0x02)  
[2025-Apr-03 16:08:47] [trace] [  JLink] - Value=0x00000001
[2025-Apr-03 16:08:47] [trace] [  JLink] - - 0.701ms returns 0  
[2025-Apr-03 16:08:47] [trace] [  JLink] - JLINK_HasError()  
[2025-Apr-03 16:08:47] [debug] [  nRF52] - Just_debug_reset
[2025-Apr-03 16:08:47] [debug] [  nRF52] - Just_is_ctrl_ap_available
[2025-Apr-03 16:08:47] [debug] [SeggerBackend] - read_access_port_register
[2025-Apr-03 16:08:47] [debug] [SeggerBackend] - ---just_read_access_port_register
[2025-Apr-03 16:08:47] [debug] [SeggerBackend] - ---just_select_access_port_register
[2025-Apr-03 16:08:47] [debug] [SeggerBackend] - Select AP 1, DP Bank 0, AP Bank 15
[2025-Apr-03 16:08:47] [trace] [  JLink] - JLINK_CORESIGHT_WriteAPDPReg(DP reg 0x02, 0x010000F0)  
[2025-Apr-03 16:08:47] [trace] [  JLink] - - 0.489ms returns 0  
[2025-Apr-03 16:08:47] [trace] [  JLink] - JLINK_HasError()  
[2025-Apr-03 16:08:47] [trace] [  JLink] - JLINK_CORESIGHT_ReadAPDPReg(AP reg 0x03)  
[2025-Apr-03 16:08:47] [trace] [  JLink] - Value=0x02880000
[2025-Apr-03 16:08:47] [trace] [  JLink] - - 0.474ms returns 0  
[2025-Apr-03 16:08:47] [trace] [  JLink] - JLINK_HasError()  
[2025-Apr-03 16:08:47] [debug] [SeggerBackend] - read_access_port_register
[2025-Apr-03 16:08:47] [debug] [SeggerBackend] - ---just_read_access_port_register
[2025-Apr-03 16:08:47] [debug] [SeggerBackend] - ---just_select_access_port_register
[2025-Apr-03 16:08:47] [trace] [  JLink] - JLINK_CORESIGHT_ReadAPDPReg(AP reg 0x03)  
[2025-Apr-03 16:08:47] [trace] [  JLink] - Value=0x02880000
[2025-Apr-03 16:08:47] [trace] [  JLink] - - 0.438ms returns 0  
[2025-Apr-03 16:08:47] [trace] [  JLink] - JLINK_HasError()  
[2025-Apr-03 16:08:47] [debug] [SeggerBackend] - read_access_port_register
[2025-Apr-03 16:08:47] [debug] [SeggerBackend] - ---just_read_access_port_register
[2025-Apr-03 16:08:47] [debug] [SeggerBackend] - ---just_select_access_port_register
[2025-Apr-03 16:08:47] [trace] [  JLink] - JLINK_CORESIGHT_ReadAPDPReg(AP reg 0x03)  
[2025-Apr-03 16:08:47] [trace] [  JLink] - Value=0x02880000
[2025-Apr-03 16:08:47] [trace] [  JLink] - - 0.440ms returns 0  
[2025-Apr-03 16:08:47] [trace] [  JLink] - JLINK_HasError()  
[2025-Apr-03 16:08:47] [debug] [SeggerBackend] - read_access_port_register
[2025-Apr-03 16:08:47] [debug] [SeggerBackend] - ---just_read_access_port_register
[2025-Apr-03 16:08:47] [debug] [SeggerBackend] - ---just_select_access_port_register
[2025-Apr-03 16:08:47] [trace] [  JLink] - JLINK_CORESIGHT_ReadAPDPReg(AP reg 0x03)  
[2025-Apr-03 16:08:47] [trace] [  JLink] - Value=0x02880000
[2025-Apr-03 16:08:47] [trace] [  JLink] - - 0.457ms returns 0  
[2025-Apr-03 16:08:47] [trace] [  JLink] - JLINK_HasError()  
[2025-Apr-03 16:08:47] [debug] [SeggerBackend] - write_access_port_register
[2025-Apr-03 16:08:47] [debug] [SeggerBackend] - ---just_write_access_port_register
[2025-Apr-03 16:08:47] [debug] [SeggerBackend] - ---just_select_access_port_register
[2025-Apr-03 16:08:47] [debug] [SeggerBackend] - Select AP 1, DP Bank 0, AP Bank 0
[2025-Apr-03 16:08:47] [trace] [  JLink] - JLINK_CORESIGHT_WriteAPDPReg(DP reg 0x02, 0x01000000)  
[2025-Apr-03 16:08:47] [trace] [  JLink] - - 0.476ms returns 0  
[2025-Apr-03 16:08:47] [trace] [  JLink] - JLINK_HasError()  
[2025-Apr-03 16:08:47] [trace] [  JLink] - JLINK_CORESIGHT_WriteAPDPReg(AP reg 0x00, 0x00000001)  
[2025-Apr-03 16:08:47] [trace] [  JLink] - - 0.422ms returns 0  
[2025-Apr-03 16:08:47] [trace] [  JLink] - JLINK_HasError()  
[2025-Apr-03 16:08:47] [debug] [SeggerBackend] - write_access_port_register
[2025-Apr-03 16:08:47] [debug] [SeggerBackend] - ---just_write_access_port_register
[2025-Apr-03 16:08:47] [debug] [SeggerBackend] - ---just_select_access_port_register
[2025-Apr-03 16:08:47] [trace] [  JLink] - JLINK_CORESIGHT_WriteAPDPReg(AP reg 0x00, 0x00000000)  
[2025-Apr-03 16:08:47] [trace] [  JLink] - - 0.434ms returns 0  
[2025-Apr-03 16:08:47] [trace] [  JLink] - JLINK_HasError()  
[2025-Apr-03 16:08:47] [debug] [SeggerBackend] - write_access_port_register
[2025-Apr-03 16:08:47] [debug] [SeggerBackend] - ---just_write_access_port_register
[2025-Apr-03 16:08:47] [debug] [SeggerBackend] - ---just_select_access_port_register
[2025-Apr-03 16:08:47] [trace] [  JLink] - JLINK_CORESIGHT_WriteAPDPReg(AP reg 0x01, 0x00000000)  
[2025-Apr-03 16:08:47] [trace] [  JLink] - - 0.418ms returns 0  
[2025-Apr-03 16:08:47] [trace] [  JLink] - JLINK_HasError()  
[2025-Apr-03 16:08:47] [debug] [  nRF52] - Just_readback_status
[2025-Apr-03 16:08:47] [debug] [  nRF52] - Just_is_ctrl_ap_available
[2025-Apr-03 16:08:47] [debug] [SeggerBackend] - read_access_port_register
[2025-Apr-03 16:08:47] [debug] [SeggerBackend] - ---just_read_access_port_register
[2025-Apr-03 16:08:47] [debug] [SeggerBackend] - ---just_select_access_port_register
[2025-Apr-03 16:08:47] [debug] [SeggerBackend] - Select AP 1, DP Bank 0, AP Bank 15
[2025-Apr-03 16:08:47] [trace] [  JLink] - JLINK_CORESIGHT_WriteAPDPReg(DP reg 0x02, 0x010000F0)  
[2025-Apr-03 16:08:47] [trace] [  JLink] - - 0.506ms returns 0  
[2025-Apr-03 16:08:47] [trace] [  JLink] - JLINK_HasError()  
[2025-Apr-03 16:08:47] [trace] [  JLink] - JLINK_CORESIGHT_ReadAPDPReg(AP reg 0x03)  
[2025-Apr-03 16:08:47] [trace] [  JLink] - Value=0x02880000
[2025-Apr-03 16:08:47] [trace] [  JLink] - - 0.350ms returns 0  
[2025-Apr-03 16:08:47] [trace] [  JLink] - JLINK_HasError()  
[2025-Apr-03 16:08:47] [debug] [SeggerBackend] - read_access_port_register
[2025-Apr-03 16:08:47] [debug] [SeggerBackend] - ---just_read_access_port_register
[2025-Apr-03 16:08:47] [debug] [SeggerBackend] - ---just_select_access_port_register
[2025-Apr-03 16:08:47] [trace] [  JLink] - JLINK_CORESIGHT_ReadAPDPReg(AP reg 0x03)  
[2025-Apr-03 16:08:47] [trace] [  JLink] - Value=0x02880000
[2025-Apr-03 16:08:47] [trace] [  JLink] - - 0.313ms returns 0  
[2025-Apr-03 16:08:47] [trace] [  JLink] - JLINK_HasError()  
[2025-Apr-03 16:08:47] [debug] [SeggerBackend] - read_access_port_register
[2025-Apr-03 16:08:47] [debug] [SeggerBackend] - ---just_read_access_port_register
[2025-Apr-03 16:08:47] [debug] [SeggerBackend] - ---just_select_access_port_register
[2025-Apr-03 16:08:47] [trace] [  JLink] - JLINK_CORESIGHT_ReadAPDPReg(AP reg 0x03)  
[2025-Apr-03 16:08:47] [trace] [  JLink] - Value=0x02880000
[2025-Apr-03 16:08:47] [trace] [  JLink] - - 0.323ms returns 0  
[2025-Apr-03 16:08:47] [trace] [  JLink] - JLINK_HasError()  
[2025-Apr-03 16:08:47] [debug] [SeggerBackend] - read_access_port_register
[2025-Apr-03 16:08:47] [debug] [SeggerBackend] - ---just_read_access_port_register
[2025-Apr-03 16:08:47] [debug] [SeggerBackend] - ---just_select_access_port_register
[2025-Apr-03 16:08:47] [trace] [  JLink] - JLINK_CORESIGHT_ReadAPDPReg(AP reg 0x03)  
[2025-Apr-03 16:08:47] [trace] [  JLink] - Value=0x02880000
[2025-Apr-03 16:08:47] [trace] [  JLink] - - 0.328ms returns 0  
[2025-Apr-03 16:08:47] [trace] [  JLink] - JLINK_HasError()  
[2025-Apr-03 16:08:47] [debug] [SeggerBackend] - read_access_port_register
[2025-Apr-03 16:08:47] [debug] [SeggerBackend] - ---just_read_access_port_register
[2025-Apr-03 16:08:47] [debug] [SeggerBackend] - ---just_select_access_port_register
[2025-Apr-03 16:08:47] [debug] [SeggerBackend] - Select AP 1, DP Bank 0, AP Bank 0
[2025-Apr-03 16:08:47] [trace] [  JLink] - JLINK_CORESIGHT_WriteAPDPReg(DP reg 0x02, 0x01000000)  
[2025-Apr-03 16:08:47] [trace] [  JLink] - - 0.279ms returns 0  
[2025-Apr-03 16:08:47] [trace] [  JLink] - JLINK_HasError()  
[2025-Apr-03 16:08:47] [trace] [  JLink] - JLINK_CORESIGHT_ReadAPDPReg(AP reg 0x03)  
[2025-Apr-03 16:08:47] [trace] [  JLink] - Value=0x00000001
[2025-Apr-03 16:08:47] [trace] [  JLink] - - 0.314ms returns 0  
[2025-Apr-03 16:08:47] [trace] [  JLink] - JLINK_HasError()  
[2025-Apr-03 16:08:47] [debug] [SeggerBackend] - read_access_port_register
[2025-Apr-03 16:08:47] [debug] [SeggerBackend] - ---just_read_access_port_register
[2025-Apr-03 16:08:47] [debug] [SeggerBackend] - ---just_select_access_port_register
[2025-Apr-03 16:08:47] [trace] [  JLink] - JLINK_CORESIGHT_ReadAPDPReg(AP reg 0x03)  
[2025-Apr-03 16:08:47] [trace] [  JLink] - Value=0x00000001
[2025-Apr-03 16:08:47] [trace] [  JLink] - - 0.288ms returns 0  
[2025-Apr-03 16:08:47] [trace] [  JLink] - JLINK_HasError()  
[2025-Apr-03 16:08:47] [debug] [SeggerBackend] - read_access_port_register
[2025-Apr-03 16:08:47] [debug] [SeggerBackend] - ---just_read_access_port_register
[2025-Apr-03 16:08:47] [debug] [SeggerBackend] - ---just_select_access_port_register
[2025-Apr-03 16:08:47] [trace] [  JLink] - JLINK_CORESIGHT_ReadAPDPReg(AP reg 0x03)  
[2025-Apr-03 16:08:47] [trace] [  JLink] - Value=0x00000001
[2025-Apr-03 16:08:47] [trace] [  JLink] - - 0.299ms returns 0  
[2025-Apr-03 16:08:47] [trace] [  JLink] - JLINK_HasError()  
[2025-Apr-03 16:08:47] [debug] [SeggerBackend] - read_access_port_register
[2025-Apr-03 16:08:47] [debug] [SeggerBackend] - ---just_read_access_port_register
[2025-Apr-03 16:08:47] [debug] [SeggerBackend] - ---just_select_access_port_register
[2025-Apr-03 16:08:47] [trace] [  JLink] - JLINK_CORESIGHT_ReadAPDPReg(AP reg 0x03)  
[2025-Apr-03 16:08:47] [trace] [  JLink] - Value=0x00000001
[2025-Apr-03 16:08:47] [trace] [  JLink] - - 0.298ms returns 0  
[2025-Apr-03 16:08:47] [trace] [  JLink] - JLINK_HasError()  
[2025-Apr-03 16:08:47] [ info] [  nRF52] - Protection status read as NONE
[2025-Apr-03 16:08:47] [debug] [  nRF52] - Just_debug_reset
[2025-Apr-03 16:08:47] [debug] [  nRF52] - Just_is_ctrl_ap_available
[2025-Apr-03 16:08:47] [debug] [SeggerBackend] - read_access_port_register
[2025-Apr-03 16:08:47] [debug] [SeggerBackend] - ---just_read_access_port_register
[2025-Apr-03 16:08:47] [debug] [SeggerBackend] - ---just_select_access_port_register
[2025-Apr-03 16:08:47] [debug] [SeggerBackend] - Select AP 1, DP Bank 0, AP Bank 15
[2025-Apr-03 16:08:47] [trace] [  JLink] - JLINK_CORESIGHT_WriteAPDPReg(DP reg 0x02, 0x010000F0)  
[2025-Apr-03 16:08:47] [trace] [  JLink] - - 0.366ms returns 0  
[2025-Apr-03 16:08:47] [trace] [  JLink] - JLINK_HasError()  
[2025-Apr-03 16:08:47] [trace] [  JLink] - JLINK_CORESIGHT_ReadAPDPReg(AP reg 0x03)  
[2025-Apr-03 16:08:47] [trace] [  JLink] - Value=0x02880000
[2025-Apr-03 16:08:47] [trace] [  JLink] - - 0.372ms returns 0  
[2025-Apr-03 16:08:47] [trace] [  JLink] - JLINK_HasError()  
[2025-Apr-03 16:08:47] [debug] [SeggerBackend] - read_access_port_register
[2025-Apr-03 16:08:47] [debug] [SeggerBackend] - ---just_read_access_port_register
[2025-Apr-03 16:08:47] [debug] [SeggerBackend] - ---just_select_access_port_register
[2025-Apr-03 16:08:47] [trace] [  JLink] - JLINK_CORESIGHT_ReadAPDPReg(AP reg 0x03)  
[2025-Apr-03 16:08:47] [trace] [  JLink] - Value=0x02880000
[2025-Apr-03 16:08:47] [trace] [  JLink] - - 0.416ms returns 0  
[2025-Apr-03 16:08:47] [trace] [  JLink] - JLINK_HasError()  
[2025-Apr-03 16:08:47] [debug] [SeggerBackend] - read_access_port_register
[2025-Apr-03 16:08:47] [debug] [SeggerBackend] - ---just_read_access_port_register
[2025-Apr-03 16:08:47] [debug] [SeggerBackend] - ---just_select_access_port_register
[2025-Apr-03 16:08:47] [trace] [  JLink] - JLINK_CORESIGHT_ReadAPDPReg(AP reg 0x03)  
[2025-Apr-03 16:08:47] [trace] [  JLink] - Value=0x02880000
[2025-Apr-03 16:08:47] [trace] [  JLink] - - 0.408ms returns 0  
[2025-Apr-03 16:08:47] [trace] [  JLink] - JLINK_HasError()  
[2025-Apr-03 16:08:47] [debug] [SeggerBackend] - read_access_port_register
[2025-Apr-03 16:08:47] [debug] [SeggerBackend] - ---just_read_access_port_register
[2025-Apr-03 16:08:47] [debug] [SeggerBackend] - ---just_select_access_port_register
[2025-Apr-03 16:08:47] [trace] [  JLink] - JLINK_CORESIGHT_ReadAPDPReg(AP reg 0x03)  
[2025-Apr-03 16:08:47] [trace] [  JLink] - Value=0x02880000
[2025-Apr-03 16:08:47] [trace] [  JLink] - - 0.424ms returns 0  
[2025-Apr-03 16:08:47] [trace] [  JLink] - JLINK_HasError()  
[2025-Apr-03 16:08:47] [debug] [SeggerBackend] - write_access_port_register
[2025-Apr-03 16:08:47] [debug] [SeggerBackend] - ---just_write_access_port_register
[2025-Apr-03 16:08:47] [debug] [SeggerBackend] - ---just_select_access_port_register
[2025-Apr-03 16:08:47] [debug] [SeggerBackend] - Select AP 1, DP Bank 0, AP Bank 0
[2025-Apr-03 16:08:47] [trace] [  JLink] - JLINK_CORESIGHT_WriteAPDPReg(DP reg 0x02, 0x01000000)  
[2025-Apr-03 16:08:47] [trace] [  JLink] - - 0.368ms returns 0  
[2025-Apr-03 16:08:47] [trace] [  JLink] - JLINK_HasError()  
[2025-Apr-03 16:08:47] [trace] [  JLink] - JLINK_CORESIGHT_WriteAPDPReg(AP reg 0x00, 0x00000001)  
[2025-Apr-03 16:08:47] [trace] [  JLink] - - 0.410ms returns 0  
[2025-Apr-03 16:08:47] [trace] [  JLink] - JLINK_HasError()  
[2025-Apr-03 16:08:47] [debug] [SeggerBackend] - write_access_port_register
[2025-Apr-03 16:08:47] [debug] [SeggerBackend] - ---just_write_access_port_register
[2025-Apr-03 16:08:47] [debug] [SeggerBackend] - ---just_select_access_port_register
[2025-Apr-03 16:08:47] [trace] [  JLink] - JLINK_CORESIGHT_WriteAPDPReg(AP reg 0x00, 0x00000000)  
[2025-Apr-03 16:08:47] [trace] [  JLink] - - 0.458ms returns 0  
[2025-Apr-03 16:08:47] [trace] [  JLink] - JLINK_HasError()  
[2025-Apr-03 16:08:47] [debug] [  nRF52] - Just_read_device_version
[2025-Apr-03 16:08:47] [debug] [  nRF52] - Just_readback_status
[2025-Apr-03 16:08:47] [debug] [  nRF52] - Just_is_ctrl_ap_available
[2025-Apr-03 16:08:47] [debug] [SeggerBackend] - read_access_port_register
[2025-Apr-03 16:08:47] [debug] [SeggerBackend] - ---just_read_access_port_register
[2025-Apr-03 16:08:47] [debug] [SeggerBackend] - ---just_select_access_port_register
[2025-Apr-03 16:08:47] [debug] [SeggerBackend] - Select AP 1, DP Bank 0, AP Bank 15
[2025-Apr-03 16:08:47] [trace] [  JLink] - JLINK_CORESIGHT_WriteAPDPReg(DP reg 0x02, 0x010000F0)  
[2025-Apr-03 16:08:47] [trace] [  JLink] - - 0.425ms returns 0  
[2025-Apr-03 16:08:47] [trace] [  JLink] - JLINK_HasError()  
[2025-Apr-03 16:08:47] [trace] [  JLink] - JLINK_CORESIGHT_ReadAPDPReg(AP reg 0x03)  
[2025-Apr-03 16:08:47] [trace] [  JLink] - Value=0x02880000
[2025-Apr-03 16:08:47] [trace] [  JLink] - - 0.474ms returns 0  
[2025-Apr-03 16:08:47] [trace] [  JLink] - JLINK_HasError()  
[2025-Apr-03 16:08:47] [debug] [SeggerBackend] - read_access_port_register
[2025-Apr-03 16:08:47] [debug] [SeggerBackend] - ---just_read_access_port_register
[2025-Apr-03 16:08:47] [debug] [SeggerBackend] - ---just_select_access_port_register
[2025-Apr-03 16:08:47] [trace] [  JLink] - JLINK_CORESIGHT_ReadAPDPReg(AP reg 0x03)  
[2025-Apr-03 16:08:47] [trace] [  JLink] - Value=0x02880000
[2025-Apr-03 16:08:47] [trace] [  JLink] - - 0.463ms returns 0  
[2025-Apr-03 16:08:47] [trace] [  JLink] - JLINK_HasError()  
[2025-Apr-03 16:08:47] [debug] [SeggerBackend] - read_access_port_register
[2025-Apr-03 16:08:47] [debug] [SeggerBackend] - ---just_read_access_port_register
[2025-Apr-03 16:08:47] [debug] [SeggerBackend] - ---just_select_access_port_register
[2025-Apr-03 16:08:47] [trace] [  JLink] - JLINK_CORESIGHT_ReadAPDPReg(AP reg 0x03)  
[2025-Apr-03 16:08:47] [trace] [  JLink] - Value=0x02880000
[2025-Apr-03 16:08:47] [trace] [  JLink] - - 0.517ms returns 0  
[2025-Apr-03 16:08:47] [trace] [  JLink] - JLINK_HasError()  
[2025-Apr-03 16:08:47] [debug] [SeggerBackend] - read_access_port_register
[2025-Apr-03 16:08:47] [debug] [SeggerBackend] - ---just_read_access_port_register
[2025-Apr-03 16:08:47] [debug] [SeggerBackend] - ---just_select_access_port_register
[2025-Apr-03 16:08:47] [trace] [  JLink] - JLINK_CORESIGHT_ReadAPDPReg(AP reg 0x03)  
[2025-Apr-03 16:08:47] [trace] [  JLink] - Value=0x02880000
[2025-Apr-03 16:08:47] [trace] [  JLink] - - 0.426ms returns 0  
[2025-Apr-03 16:08:47] [trace] [  JLink] - JLINK_HasError()  
[2025-Apr-03 16:08:47] [debug] [SeggerBackend] - read_access_port_register
[2025-Apr-03 16:08:47] [debug] [SeggerBackend] - ---just_read_access_port_register
[2025-Apr-03 16:08:47] [debug] [SeggerBackend] - ---just_select_access_port_register
[2025-Apr-03 16:08:47] [debug] [SeggerBackend] - Select AP 1, DP Bank 0, AP Bank 0
[2025-Apr-03 16:08:47] [trace] [  JLink] - JLINK_CORESIGHT_WriteAPDPReg(DP reg 0x02, 0x01000000)  
[2025-Apr-03 16:08:47] [trace] [  JLink] - - 0.391ms returns 0  
[2025-Apr-03 16:08:47] [trace] [  JLink] - JLINK_HasError()  
[2025-Apr-03 16:08:47] [trace] [  JLink] - JLINK_CORESIGHT_ReadAPDPReg(AP reg 0x03)  
[2025-Apr-03 16:08:47] [trace] [  JLink] - Value=0x00000001
[2025-Apr-03 16:08:47] [trace] [  JLink] - - 0.408ms returns 0  
[2025-Apr-03 16:08:47] [trace] [  JLink] - JLINK_HasError()  
[2025-Apr-03 16:08:47] [debug] [SeggerBackend] - read_access_port_register
[2025-Apr-03 16:08:47] [debug] [SeggerBackend] - ---just_read_access_port_register
[2025-Apr-03 16:08:47] [debug] [SeggerBackend] - ---just_select_access_port_register
[2025-Apr-03 16:08:47] [trace] [  JLink] - JLINK_CORESIGHT_ReadAPDPReg(AP reg 0x03)  
[2025-Apr-03 16:08:47] [trace] [  JLink] - Value=0x00000001
[2025-Apr-03 16:08:47] [trace] [  JLink] - - 0.452ms returns 0  
[2025-Apr-03 16:08:47] [trace] [  JLink] - JLINK_HasError()  
[2025-Apr-03 16:08:47] [debug] [SeggerBackend] - read_access_port_register
[2025-Apr-03 16:08:47] [debug] [SeggerBackend] - ---just_read_access_port_register
[2025-Apr-03 16:08:47] [debug] [SeggerBackend] - ---just_select_access_port_register
[2025-Apr-03 16:08:47] [trace] [  JLink] - JLINK_CORESIGHT_ReadAPDPReg(AP reg 0x03)  
[2025-Apr-03 16:08:47] [trace] [  JLink] - Value=0x00000001
[2025-Apr-03 16:08:47] [trace] [  JLink] - - 0.415ms returns 0  
[2025-Apr-03 16:08:47] [trace] [  JLink] - JLINK_HasError()  
[2025-Apr-03 16:08:47] [debug] [SeggerBackend] - read_access_port_register
[2025-Apr-03 16:08:47] [debug] [SeggerBackend] - ---just_read_access_port_register
[2025-Apr-03 16:08:47] [debug] [SeggerBackend] - ---just_select_access_port_register
[2025-Apr-03 16:08:47] [trace] [  JLink] - JLINK_CORESIGHT_ReadAPDPReg(AP reg 0x03)  
[2025-Apr-03 16:08:47] [trace] [  JLink] - Value=0x00000001
[2025-Apr-03 16:08:47] [trace] [  JLink] - - 0.434ms returns 0  
[2025-Apr-03 16:08:47] [trace] [  JLink] - JLINK_HasError()  
[2025-Apr-03 16:08:47] [ info] [  nRF52] - Protection status read as NONE
[2025-Apr-03 16:08:47] [debug] [SeggerBackend] - read_u32
[2025-Apr-03 16:08:47] [debug] [SeggerBackend] - ---just_connect_to_device
[2025-Apr-03 16:08:47] [debug] [SeggerBackend] - is_connected_to_device
[2025-Apr-03 16:08:47] [trace] [  JLink] - JLINK_IsConnected()  
[2025-Apr-03 16:08:47] [trace] [  JLink] - - 0.003ms returns FALSE  
[2025-Apr-03 16:08:47] [trace] [  JLink] - JLINK_HasError()  
[2025-Apr-03 16:08:47] [debug] [SeggerBackend] - ---set_coresight_ahb_ap_index
[2025-Apr-03 16:08:47] [trace] [  JLink] - JLINK_ExecCommand("CORESIGHT_SetIndexAHBAPToUse = 0", ...).   
[2025-Apr-03 16:08:47] [trace] [  JLink] - - 0.002ms returns 0x00  
[2025-Apr-03 16:08:47] [trace] [  JLink] - JLINK_HasError()  
[2025-Apr-03 16:08:47] [trace] [  JLink] - JLINK_ExecCommand("device = nRF52", ...).   
[2025-Apr-03 16:08:47] [trace] [  JLink] - Device "NRF52" selected.
[2025-Apr-03 16:08:47] [trace] [  JLink] - Device "NRF52" selected.
[2025-Apr-03 16:08:47] [trace] [  JLink] - - 0.943ms returns 0x00  
[2025-Apr-03 16:08:47] [trace] [  JLink] - JLINK_HasError()  
[2025-Apr-03 16:08:47] [trace] [  JLink] - JLINK_Connect()  
[2025-Apr-03 16:08:47] [trace] [  JLink] - InitTarget() start
[2025-Apr-03 16:08:47] [trace] [  JLink] - InitTarget() start
[2025-Apr-03 16:08:47] [trace] [  JLink] -  J-Link Script File: Executing InitTarget() 
[2025-Apr-03 16:08:47] [trace] [  JLink] - InitTarget() end - Took 3.51ms
[2025-Apr-03 16:08:47] [trace] [  JLink] - InitTarget() end - Took 3.51ms
[2025-Apr-03 16:08:47] [trace] [  JLink] - Found SW-DP with ID 0x2BA01477
[2025-Apr-03 16:08:47] [trace] [  JLink] - Found SW-DP with ID 0x2BA01477
[2025-Apr-03 16:08:47] [trace] [  JLink] - DPIDR: 0x2BA01477
[2025-Apr-03 16:08:47] [trace] [  JLink] - DPIDR: 0x2BA01477
[2025-Apr-03 16:08:47] [trace] [  JLink] - CoreSight SoC-400 or earlier
[2025-Apr-03 16:08:47] [trace] [  JLink] - CoreSight SoC-400 or earlier
[2025-Apr-03 16:08:47] [trace] [  JLink] - AP map detection skipped. Manually configured AP map found.
[2025-Apr-03 16:08:47] [trace] [  JLink] - AP map detection skipped. Manually configured AP map found.
[2025-Apr-03 16:08:47] [trace] [  JLink] - AP[0]: AHB-AP (IDR: Not set, ADDR: 0x00000000)
[2025-Apr-03 16:08:47] [trace] [  JLink] - AP[0]: AHB-AP (IDR: Not set, ADDR: 0x00000000)
[2025-Apr-03 16:08:47] [trace] [  JLink] - AP[0]: Core found
[2025-Apr-03 16:08:47] [trace] [  JLink] - AP[0]: Core found
[2025-Apr-03 16:08:47] [trace] [  JLink] - AP[0]: AHB-AP ROM base: 0xE00FF000
[2025-Apr-03 16:08:47] [trace] [  JLink] - AP[0]: AHB-AP ROM base: 0xE00FF000
[2025-Apr-03 16:08:47] [trace] [  JLink] - CPUID register: 0x410FC241. Implementer code: 0x41 (ARM)
[2025-Apr-03 16:08:47] [trace] [  JLink] - CPUID register: 0x410FC241. Implementer code: 0x41 (ARM)
[2025-Apr-03 16:08:47] [trace] [  JLink] - Found Cortex-M4 r0p1, Little endian.
[2025-Apr-03 16:08:47] [trace] [  JLink] - Found Cortex-M4 r0p1, Little endian.
[2025-Apr-03 16:08:47] [trace] [  JLink] - -- Max. mem block: 0x0003C7B8
[2025-Apr-03 16:08:47] [trace] [  JLink] - CPU_ReadMem(4 bytes @ 0xE000EDF0)
[2025-Apr-03 16:08:47] [trace] [  JLink] - CPU_WriteMem(4 bytes @ 0xE000EDF0)
[2025-Apr-03 16:08:47] [trace] [  JLink] - CPU_ReadMem(4 bytes @ 0xE0002000)
[2025-Apr-03 16:08:47] [trace] [  JLink] - FPUnit: 6 code (BP) slots and 2 literal slots
[2025-Apr-03 16:08:47] [trace] [  JLink] - FPUnit: 6 code (BP) slots and 2 literal slots
[2025-Apr-03 16:08:47] [trace] [  JLink] - CPU_ReadMem(4 bytes @ 0xE000EDFC)
[2025-Apr-03 16:08:47] [trace] [  JLink] - CPU_WriteMem(4 bytes @ 0xE000EDFC)
[2025-Apr-03 16:08:47] [trace] [  JLink] - CPU_ReadMem(4 bytes @ 0xE0001000)
[2025-Apr-03 16:08:47] [trace] [  JLink] - CPU_WriteMem(4 bytes @ 0xE0001000)
[2025-Apr-03 16:08:47] [trace] [  JLink] - CPU_ReadMem(4 bytes @ 0xE000ED88)
[2025-Apr-03 16:08:47] [trace] [  JLink] - CPU_WriteMem(4 bytes @ 0xE000ED88)
[2025-Apr-03 16:08:47] [trace] [  JLink] - CPU_ReadMem(4 bytes @ 0xE000ED88)
[2025-Apr-03 16:08:47] [trace] [  JLink] - CPU_WriteMem(4 bytes @ 0xE000ED88)
[2025-Apr-03 16:08:47] [trace] [  JLink] - CoreSight components:
[2025-Apr-03 16:08:47] [trace] [  JLink] - CoreSight components:
[2025-Apr-03 16:08:47] [trace] [  JLink] - ROMTbl[0] @ E00FF000
[2025-Apr-03 16:08:47] [trace] [  JLink] - ROMTbl[0] @ E00FF000
[2025-Apr-03 16:08:47] [trace] [  JLink] - CPU_ReadMem(64 bytes @ 0xE00FF000)
[2025-Apr-03 16:08:47] [trace] [  JLink] - CPU_ReadMem(32 bytes @ 0xE000EFE0)
[2025-Apr-03 16:08:47] [trace] [  JLink] - [0][0]: E000E000 CID B105E00D PID 000BB00C SCS-M7
[2025-Apr-03 16:08:47] [trace] [  JLink] - [0][0]: E000E000 CID B105E00D PID 000BB00C SCS-M7
[2025-Apr-03 16:08:47] [trace] [  JLink] - CPU_ReadMem(32 bytes @ 0xE0001FE0)
[2025-Apr-03 16:08:47] [trace] [  JLink] - [0][1]: E0001000 CID B105E00D PID 003BB002 DWT
[2025-Apr-03 16:08:47] [trace] [  JLink] - [0][1]: E0001000 CID B105E00D PID 003BB002 DWT
[2025-Apr-03 16:08:47] [trace] [  JLink] - CPU_ReadMem(32 bytes @ 0xE0002FE0)
[2025-Apr-03 16:08:47] [trace] [  JLink] - [0][2]: E0002000 CID B105E00D PID 002BB003 FPB
[2025-Apr-03 16:08:47] [trace] [  JLink] - [0][2]: E0002000 CID B105E00D PID 002BB003 FPB
[2025-Apr-03 16:08:47] [trace] [  JLink] - CPU_ReadMem(32 bytes @ 0xE0000FE0)
[2025-Apr-03 16:08:47] [trace] [  JLink] - [0][3]: E0000000 CID B105E00D PID 003BB001 ITM
[2025-Apr-03 16:08:47] [trace] [  JLink] - [0][3]: E0000000 CID B105E00D PID 003BB001 ITM
[2025-Apr-03 16:08:47] [trace] [  JLink] - CPU_ReadMem(32 bytes @ 0xE0040FE0)
[2025-Apr-03 16:08:47] [trace] [  JLink] - [0][4]: E0040000 CID B105900D PID 000BB9A1 TPIU
[2025-Apr-03 16:08:47] [trace] [  JLink] - [0][4]: E0040000 CID B105900D PID 000BB9A1 TPIU
[2025-Apr-03 16:08:47] [trace] [  JLink] - CPU_ReadMem(32 bytes @ 0xE0041FE0)
[2025-Apr-03 16:08:47] [trace] [  JLink] - [0][5]: E0041000 CID B105900D PID 000BB925 ETM
[2025-Apr-03 16:08:47] [trace] [  JLink] - [0][5]: E0041000 CID B105900D PID 000BB925 ETM
[2025-Apr-03 16:08:47] [trace] [  JLink] - - 21.603ms returns 0x00  
[2025-Apr-03 16:08:47] [trace] [  JLink] - JLINK_HasError()  
[2025-Apr-03 16:08:47] [trace] [  JLink] - JLINK_CORE_GetFound()  
[2025-Apr-03 16:08:47] [trace] [  JLink] - - 0.002ms returns 0xE0000FF  
[2025-Apr-03 16:08:47] [debug] [SeggerBackend] - ---just_read_u32
[2025-Apr-03 16:08:47] [debug] [SeggerBackend] - ---just_invalidate_cache
[2025-Apr-03 16:08:47] [trace] [  JLink] - JLINK_ExecCommand("InvalidateCache", ...).   
[2025-Apr-03 16:08:47] [trace] [  JLink] - - 0.003ms returns 0x00  
[2025-Apr-03 16:08:47] [trace] [  JLink] - JLINK_HasError()  
[2025-Apr-03 16:08:47] [trace] [  JLink] - JLINK_ReadMemU32(0x10000130, 0x1 Items)  
[2025-Apr-03 16:08:47] [trace] [  JLink] - CPU_ReadMem(4 bytes @ 0x10000130)
[2025-Apr-03 16:08:47] [trace] [  JLink] - Data:  06 00 00 00
[2025-Apr-03 16:08:47] [trace] [  JLink] - - 0.713ms returns 1 (0x1)  
[2025-Apr-03 16:08:47] [trace] [  JLink] - JLINK_HasError()  
[2025-Apr-03 16:08:47] [debug] [SeggerBackend] - read_u32
[2025-Apr-03 16:08:47] [debug] [SeggerBackend] - ---just_connect_to_device
[2025-Apr-03 16:08:47] [debug] [SeggerBackend] - is_connected_to_device
[2025-Apr-03 16:08:47] [debug] [SeggerBackend] - ---just_read_u32
[2025-Apr-03 16:08:47] [debug] [SeggerBackend] - ---just_invalidate_cache
[2025-Apr-03 16:08:47] [trace] [  JLink] - JLINK_ExecCommand("InvalidateCache", ...).   
[2025-Apr-03 16:08:47] [trace] [  JLink] - - 0.002ms returns 0x00  
[2025-Apr-03 16:08:47] [trace] [  JLink] - JLINK_HasError()  
[2025-Apr-03 16:08:47] [trace] [  JLink] - JLINK_ReadMemU32(0x10000134, 0x1 Items)  
